
T21BC 000:033 SEGGER J-Link V6.10i Log File (0000ms, 0022ms total)
T21BC 000:033 DLL Compiled: Oct 25 2016 19:31:51 (0000ms, 0022ms total)
T21BC 000:033 Logging started @ 2017-02-09 17:09 (0000ms, 0022ms total)
T21BC 000:033 JLINK_SetWarnOutHandler(...) (0000ms, 0022ms total)
T21BC 000:033 JLINK_OpenEx(...)
Firmware: J-Link V9 compiled Sep  1 2016 18:29:50
Hardware: V9.30
S/N: 59301967
Feature(s): GDB, RDI, FlashBP, FlashDL, JFlashWEBSRV Webserver running on local port 19080 (0012ms, 0034ms total)
T21BC 000:033   returns O.K. (0012ms, 0034ms total)
T21BC 000:045 JLINK_SetErrorOutHandler(...) (0000ms, 0034ms total)
T21BC 000:045 JLINK_ExecCommand("ProjectFile = "E:\GitHub_Clone\MX_AudioPlayer\MX_AudioPlayer\MDK-ARM\JLinkSettings.ini"", ...). Device "STM32F101RD" selected.  returns 0x00 (0111ms, 0145ms total)
T21BC 000:156 JLINK_ExecCommand("Device = STM32F103RD", ...). Device "STM32F101RD" selected.  returns 0x00 (0001ms, 0146ms total)
T21BC 000:157 JLINK_ExecCommand("DisableConnectionTimeout", ...).   returns 0x01 (0000ms, 0146ms total)
T21BC 000:157 JLINK_GetHardwareVersion()  returns 0x16B48 (0000ms, 0146ms total)
T21BC 000:157 JLINK_GetDLLVersion()  returns 61009 (0000ms, 0146ms total)
T21BC 000:157 JLINK_GetFirmwareString(...) (0000ms, 0146ms total)
T21BC 000:157 JLINK_GetDLLVersion()  returns 61009 (0000ms, 0146ms total)
T21BC 000:157 JLINK_GetCompileDateTime() (0000ms, 0146ms total)
T21BC 000:157 JLINK_GetFirmwareString(...) (0000ms, 0146ms total)
T21BC 000:157 JLINK_GetHardwareVersion()  returns 0x16B48 (0000ms, 0146ms total)
T21BC 000:157 JLINK_TIF_Select(JLINKARM_TIF_SWD)  returns 0x00 (0001ms, 0147ms total)
T21BC 000:158 JLINK_SetSpeed(50000) (0000ms, 0147ms total)
T21BC 000:158 JLINK_GetId() >0x108 TIF>Found SWD-DP with ID 0x1BA01477 >0x0D TIF> >0x28 TIF> >0x0D TIF> >0x28 TIF> >0x0D TIF> >0x28 TIF> >0x0D TIF> >0x28 TIF> >0x0D TIF> >0x21 TIF> >0x0D TIF> >0x28 TIF> >0x0D TIF> >0x28 TIF> >0x0D TIF> >0x28 TIF> >0x0D TIF> >0x21 TIF> >0x0D TIF> >0x21 TIF> >0x0D TIF> >0x28 TIF> >0x0D TIF> >0x21 TIF> >0x0D TIF> >0x21 TIF> >0x0D TIF> >0x28 TIF> >0x0D TIF> >0x28 TIF> >0x0D TIF> >0x28 TIF> >0x0D TIF> >0x21 TIF> >0x0D TIF> >0x21 TIF> >0x0D TIF> >0x28 TIF> >0x0D TIF>
 >0x21 TIF> >0x0D TIF> >0x21 TIF> >0x0D TIF> >0x28 TIF> >0x0D TIF> >0x21 TIF> >0x0D TIF> >0x21 TIF> >0x0D TIF> >0x28 TIF> >0x0D TIF> >0x21 TIF> >0x0D TIF> >0x21 TIF> >0x0D TIF> >0x28 TIF> >0x0D TIF> >0x21 TIF> >0x0D TIF> >0x21 TIF> >0x108 TIF>Found SWD-DP with ID 0x1BA01477 >0x0D TIF> >0x28 TIF> >0x0D TIF> >0x28 TIF> >0x0D TIF> >0x28 TIF> >0x0D TIF> >0x28 TIF> >0x0D TIF> >0x21 TIF> >0x0D TIF> >0x28 TIF> >0x0D TIF> >0x28 TIF> >0x0D TIF> >0x21 TIF> >0x0D TIF> >0x21 TIF> >0x0D TIF> >0x21 TIF>
AP-IDR: 0x14770011, Type: AHB-AP >0x0D TIF> >0x28 TIF> >0x0D TIF> >0x28 TIF> >0x0D TIF> >0x28 TIF> >0x0D TIF> >0x21 TIF> >0x0D TIF> >0x21 TIF> >0x0D TIF> >0x28 TIF> >0x0D TIF> >0x21 TIF> >0x0D TIF> >0x21 TIF>Found Cortex-M3 r1p1, Little endian. -- CPU_ReadMem(4 bytes @ 0xE000EDF0) -- CPU_WriteMem(4 bytes @ 0xE000EDF0) -- CPU_ReadMem(4 bytes @ 0xE0002000)FPUnit: 6 code (BP) slots and 2 literal slots -- CPU_ReadMem(4 bytes @ 0xE000EDFC) -- CPU_WriteMem(4 bytes @ 0xE000EDFC)
 -- CPU_ReadMem(4 bytes @ 0xE0001000) -- CPU_WriteMem(4 bytes @ 0xE0001000) -- CPU_ReadMem(4 bytes @ 0xE000ED88) -- CPU_WriteMem(4 bytes @ 0xE000ED88) -- CPU_ReadMem(4 bytes @ 0xE000ED88) -- CPU_WriteMem(4 bytes @ 0xE000ED88)CoreSight components:ROMTbl 0 @ E00FF000 -- CPU_ReadMem(16 bytes @ 0xE00FF000) -- CPU_ReadMem(16 bytes @ 0xE000EFF0) -- CPU_ReadMem(16 bytes @ 0xE000EFE0)ROMTbl 0 [0]: FFF0F000, CID: B105E00D, PID: 001BB000 SCS -- CPU_ReadMem(16 bytes @ 0xE0001FF0)
 -- CPU_ReadMem(16 bytes @ 0xE0001FE0)ROMTbl 0 [1]: FFF02000, CID: B105E00D, PID: 001BB002 DWT -- CPU_ReadMem(16 bytes @ 0xE0002FF0) -- CPU_ReadMem(16 bytes @ 0xE0002FE0)ROMTbl 0 [2]: FFF03000, CID: B105E00D, PID: 000BB003 FPB -- CPU_ReadMem(16 bytes @ 0xE0000FF0) -- CPU_ReadMem(16 bytes @ 0xE0000FE0)ROMTbl 0 [3]: FFF01000, CID: B105E00D, PID: 001BB001 ITM -- CPU_ReadMem(16 bytes @ 0xE00FF010) -- CPU_ReadMem(16 bytes @ 0xE0040FF0) -- CPU_ReadMem(16 bytes @ 0xE0040FE0)
ROMTbl 0 [4]: FFF41000, CID: B105900D, PID: 001BB923 TPIU-Lite -- CPU_ReadMem(16 bytes @ 0xE0041FF0) -- CPU_ReadMem(16 bytes @ 0xE0041FE0)ROMTbl 0 [5]: FFF42000, CID: B105900D, PID: 101BB924 ETM-M3 >0x0D TIF> >0x21 TIF>  returns 0x1BA01477 (0020ms, 0167ms total)
T21BC 000:178 JLINK_GetDLLVersion()  returns 61009 (0000ms, 0167ms total)
T21BC 000:178 JLINK_CORE_GetFound()  returns 0x30000FF (0000ms, 0167ms total)
T21BC 000:178 JLINK_GetDebugInfo(0x100) -- Value=0xE00FF000  returns 0x00 (0000ms, 0167ms total)
T21BC 000:178 JLINK_GetDebugInfo(0x100) -- Value=0xE00FF000  returns 0x00 (0000ms, 0167ms total)
T21BC 000:178 JLINK_GetDebugInfo(0x101) -- Value=0xE0041000  returns 0x00 (0000ms, 0167ms total)
T21BC 000:178 JLINK_GetDebugInfo(0x102) -- Value=0x00000000  returns 0x00 (0000ms, 0167ms total)
T21BC 000:178 JLINK_GetDebugInfo(0x103) -- Value=0xE0040000  returns 0x00 (0000ms, 0167ms total)
T21BC 000:178 JLINK_GetDebugInfo(0x104) -- Value=0xE0000000  returns 0x00 (0000ms, 0167ms total)
T21BC 000:178 JLINK_GetDebugInfo(0x105) -- Value=0xE0001000  returns 0x00 (0000ms, 0167ms total)
T21BC 000:178 JLINK_GetDebugInfo(0x106) -- Value=0xE0002000  returns 0x00 (0000ms, 0167ms total)
T21BC 000:178 JLINK_GetDebugInfo(0x107) -- Value=0xE000E000  returns 0x00 (0000ms, 0167ms total)
T21BC 000:178 JLINK_GetDebugInfo(0x10C) -- Value=0xE000EDF0  returns 0x00 (0000ms, 0167ms total)
T21BC 000:178 JLINK_ReadMemU32(0xE000ED00, 0x0001 Items, ...) -- CPU is running -- CPU_ReadMem(4 bytes @ 0xE000ED00) - Data: 31 C2 1F 41  returns 0x01 (0000ms, 0167ms total)
T21BC 000:178 JLINK_SetResetType(JLINKARM_RESET_TYPE_NORMAL)  returns JLINKARM_RESET_TYPE_NORMAL (0000ms, 0167ms total)
T21BC 000:178 JLINK_Reset() -- CPU is running -- CPU_WriteMem(4 bytes @ 0xE000EDF0) -- CPU is running -- CPU_WriteMem(4 bytes @ 0xE000EDFC) >0x35 TIF> -- CPU is running -- CPU_WriteMem(4 bytes @ 0xE000ED0C) -- CPU is running -- CPU_ReadMem(4 bytes @ 0xE000EDF0) -- CPU is running -- CPU_ReadMem(4 bytes @ 0xE000EDF0) -- CPU is running -- CPU_ReadMem(4 bytes @ 0xE000EDF0) -- CPU is running -- CPU_ReadMem(4 bytes @ 0xE000EDF0) -- CPU is running -- CPU_ReadMem(4 bytes @ 0xE000EDF0) -- CPU is running
 -- CPU_ReadMem(4 bytes @ 0xE000EDF0) -- CPU is running -- CPU_ReadMem(4 bytes @ 0xE000EDF0) -- CPU is running -- CPU_ReadMem(4 bytes @ 0xE000EDF0) -- CPU is running -- CPU_ReadMem(4 bytes @ 0xE000EDF0) -- CPU is running -- CPU_ReadMem(4 bytes @ 0xE000EDF0) -- CPU is running -- CPU_ReadMem(4 bytes @ 0xE000EDF0) -- CPU is running -- CPU_ReadMem(4 bytes @ 0xE000EDF0) -- CPU is running -- CPU_ReadMem(4 bytes @ 0xE000EDF0) -- CPU is running -- CPU_ReadMem(4 bytes @ 0xE000EDF0) -- CPU is running
 -- CPU_ReadMem(4 bytes @ 0xE000EDF0) -- CPU is running -- CPU_ReadMem(4 bytes @ 0xE000EDF0) -- CPU is running -- CPU_ReadMem(4 bytes @ 0xE000EDF0) -- CPU is running -- CPU_ReadMem(4 bytes @ 0xE000EDF0) -- CPU is running -- CPU_ReadMem(4 bytes @ 0xE000EDF0) -- CPU is running -- CPU_ReadMem(4 bytes @ 0xE000EDF0) -- CPU is running -- CPU_ReadMem(4 bytes @ 0xE000EDF0) -- CPU is running -- CPU_ReadMem(4 bytes @ 0xE000EDF0) -- CPU is running -- CPU_ReadMem(4 bytes @ 0xE000EDF0) -- CPU is running
 -- CPU_ReadMem(4 bytes @ 0xE000EDF0) -- CPU is running -- CPU_ReadMem(4 bytes @ 0xE000EDF0) -- CPU is running -- CPU_ReadMem(4 bytes @ 0xE000EDF0) -- CPU is running -- CPU_ReadMem(4 bytes @ 0xE000EDF0) -- CPU is running -- CPU_ReadMem(4 bytes @ 0xE000EDF0) -- CPU is running -- CPU_ReadMem(4 bytes @ 0xE000EDF0) -- CPU is running -- CPU_ReadMem(4 bytes @ 0xE000EDF0) -- CPU is running -- CPU_WriteMem(4 bytes @ 0xE000EDF0) -- CPU is running -- CPU_WriteMem(4 bytes @ 0xE000EDFC) -- CPU is running
 -- CPU_ReadMem(4 bytes @ 0xE000EDF0) -- CPU_WriteMem(4 bytes @ 0xE0002000) -- CPU_ReadMem(4 bytes @ 0xE000EDFC) -- CPU_ReadMem(4 bytes @ 0xE0001000) (0019ms, 0186ms total)
T21BC 000:197 JLINK_ReadReg(R15 (PC))  returns 0x080001E8 (0000ms, 0186ms total)
T21BC 000:197 JLINK_ReadReg(XPSR)  returns 0x01000000 (0000ms, 0186ms total)
T21BC 000:197 JLINK_Halt()  returns 0x00 (0000ms, 0186ms total)
T21BC 000:197 JLINK_IsHalted()  returns TRUE (0000ms, 0186ms total)
T21BC 000:197 JLINK_ReadMemU32(0xE000EDF0, 0x0001 Items, ...) -- CPU_ReadMem(4 bytes @ 0xE000EDF0) - Data: 03 00 03 00  returns 0x01 (0000ms, 0186ms total)
T21BC 000:197 JLINK_WriteU32(0xE000EDF0, 0xA05F0003) -- CPU_WriteMem(4 bytes @ 0xE000EDF0)  returns 0x00 (0000ms, 0186ms total)
T21BC 000:197 JLINK_WriteU32(0xE000EDFC, 0x01000000) -- CPU_WriteMem(4 bytes @ 0xE000EDFC)  returns 0x00 (0001ms, 0187ms total)
T21BC 000:198 JLINK_GetHWStatus(...)  returns 0x00 (0000ms, 0187ms total)
T21BC 000:198 JLINK_GetNumBPUnits(Type = 0xFFFFFF00)  returns 0x06 (0000ms, 0187ms total)
T21BC 000:198 JLINK_GetNumBPUnits(Type = 0xF0)  returns 0x2000 (0000ms, 0187ms total)
T21BC 000:198 JLINK_GetNumWPUnits()  returns 0x04 (0000ms, 0187ms total)
T21BC 000:198 JLINK_GetSpeed()  returns 0x2EE0 (0000ms, 0187ms total)
T21BC 000:198 JLINK_ReadMemU32(0xE000E004, 0x0001 Items, ...) -- CPU_ReadMem(4 bytes @ 0xE000E004) - Data: 01 00 00 00  returns 0x01 (0000ms, 0187ms total)
T21BC 000:198 JLINK_ReadMemU32(0xE000E004, 0x0001 Items, ...) -- CPU_ReadMem(4 bytes @ 0xE000E004) - Data: 01 00 00 00  returns 0x01 (0000ms, 0187ms total)
T21BC 000:198 JLINK_WriteMem(0xE0001000, 0x001C Bytes, ...) - Data: 01 00 00 00 00 00 00 00 00 00 00 00 00 00 00 00 ... -- CPU_WriteMem(28 bytes @ 0xE0001000)  returns 0x1C (0001ms, 0188ms total)
T21BC 000:199 JLINK_ReadMem (0xE0001000, 0x001C Bytes, ...) -- CPU_ReadMem(28 bytes @ 0xE0001000) - Data: 01 00 00 40 00 00 00 00 00 00 00 00 00 00 00 00 ...  returns 0x00 (0000ms, 0188ms total)
T21BC 000:199 JLINK_ReadReg(R15 (PC))  returns 0x080001E8 (0000ms, 0188ms total)
T21BC 000:199 JLINK_ReadReg(XPSR)  returns 0x01000000 (0000ms, 0188ms total)
T21BC 000:309 JLINK_SetResetType(JLINKARM_RESET_TYPE_NORMAL)  returns JLINKARM_RESET_TYPE_NORMAL (0000ms, 0188ms total)
T21BC 000:309 JLINK_Reset() -- CPU_WriteMem(4 bytes @ 0xE000EDF0) -- CPU_WriteMem(4 bytes @ 0xE000EDFC) >0x35 TIF> -- CPU_WriteMem(4 bytes @ 0xE000ED0C) -- CPU_ReadMem(4 bytes @ 0xE000EDF0) -- CPU_ReadMem(4 bytes @ 0xE000EDF0) -- CPU_ReadMem(4 bytes @ 0xE000EDF0) -- CPU_ReadMem(4 bytes @ 0xE000EDF0) -- CPU_ReadMem(4 bytes @ 0xE000EDF0) -- CPU_ReadMem(4 bytes @ 0xE000EDF0) -- CPU_ReadMem(4 bytes @ 0xE000EDF0) -- CPU_ReadMem(4 bytes @ 0xE000EDF0) -- CPU_ReadMem(4 bytes @ 0xE000EDF0)
 -- CPU_ReadMem(4 bytes @ 0xE000EDF0) -- CPU_ReadMem(4 bytes @ 0xE000EDF0) -- CPU_ReadMem(4 bytes @ 0xE000EDF0) -- CPU_ReadMem(4 bytes @ 0xE000EDF0) -- CPU_ReadMem(4 bytes @ 0xE000EDF0) -- CPU_ReadMem(4 bytes @ 0xE000EDF0) -- CPU_ReadMem(4 bytes @ 0xE000EDF0) -- CPU_ReadMem(4 bytes @ 0xE000EDF0) -- CPU_ReadMem(4 bytes @ 0xE000EDF0) -- CPU_ReadMem(4 bytes @ 0xE000EDF0) -- CPU_ReadMem(4 bytes @ 0xE000EDF0) -- CPU_ReadMem(4 bytes @ 0xE000EDF0) -- CPU_ReadMem(4 bytes @ 0xE000EDF0)
 -- CPU_ReadMem(4 bytes @ 0xE000EDF0) -- CPU_ReadMem(4 bytes @ 0xE000EDF0) -- CPU_ReadMem(4 bytes @ 0xE000EDF0) -- CPU_ReadMem(4 bytes @ 0xE000EDF0) -- CPU_ReadMem(4 bytes @ 0xE000EDF0) -- CPU_WriteMem(4 bytes @ 0xE000EDF0) -- CPU_WriteMem(4 bytes @ 0xE000EDFC) -- CPU is running -- CPU_ReadMem(4 bytes @ 0xE000EDF0) -- CPU_WriteMem(4 bytes @ 0xE0002000) -- CPU_ReadMem(4 bytes @ 0xE000EDFC) -- CPU_ReadMem(4 bytes @ 0xE0001000) (0019ms, 0207ms total)
T21BC 000:328 JLINK_ReadReg(R15 (PC))  returns 0x080001E8 (0000ms, 0207ms total)
T21BC 000:328 JLINK_ReadReg(XPSR)  returns 0x01000000 (0000ms, 0207ms total)
T21BC 000:328 JLINK_ReadMem (0x08000130, 0x003C Bytes, ...) -- CPU_ReadMem(128 bytes @ 0x08000100) -- Updating C cache (128 bytes @ 0x08000100) -- Read from C cache (60 bytes @ 0x08000130) - Data: DF F8 0C D0 00 F0 B0 FE 00 48 00 47 39 A6 00 08 ...  returns 0x00 (0001ms, 0208ms total)
T21BC 000:329 JLINK_ReadMem (0x0800016C, 0x003C Bytes, ...) -- CPU_ReadMem(64 bytes @ 0x08000180) -- Updating C cache (64 bytes @ 0x08000180) -- Read from C cache (60 bytes @ 0x0800016C) - Data: 00 68 80 F3 08 88 62 B6 61 B6 BF F3 4F 8F BF F3 ...  returns 0x00 (0001ms, 0209ms total)
T21BC 000:330 JLINK_ReadMem (0x080001A8, 0x003C Bytes, ...) -- CPU_ReadMem(64 bytes @ 0x080001C0) -- Updating C cache (64 bytes @ 0x080001C0) -- Read from C cache (60 bytes @ 0x080001A8) - Data: 4F F0 00 00 80 F3 11 88 BD E8 08 40 19 68 08 68 ...  returns 0x00 (0000ms, 0209ms total)
T21BC 000:330 JLINK_ReadMem (0x080001E4, 0x003C Bytes, ...) -- CPU_ReadMem(64 bytes @ 0x08000200) -- Updating C cache (64 bytes @ 0x08000200) -- Read from C cache (60 bytes @ 0x080001E4) - Data: 70 47 00 00 06 48 80 47 06 48 00 47 FE E7 FE E7 ...  returns 0x00 (0000ms, 0209ms total)
T21BC 000:402 JLINK_ReadMem (0x40010800, 0x000C Bytes, ...) -- CPU_ReadMem(12 bytes @ 0x40010800) - Data: 44 44 44 44 44 44 84 88 00 00 00 00  returns 0x00 (0000ms, 0209ms total)
T21BC 000:402 JLINK_ReadMem (0x4001080C, 0x0004 Bytes, ...) -- CPU_ReadMem(4 bytes @ 0x4001080C) - Data: 00 A0 00 00  returns 0x00 (0001ms, 0210ms total)
T21BC 000:403 JLINK_ReadMem (0x40010818, 0x0004 Bytes, ...) -- CPU_ReadMem(4 bytes @ 0x40010818) - Data: 00 00 00 00  returns 0x00 (0000ms, 0210ms total)
T21BC 000:429 JLINK_ReadMem (0x40010C00, 0x000C Bytes, ...) -- CPU_ReadMem(12 bytes @ 0x40010C00) - Data: 44 44 48 44 44 44 44 44 00 00 00 00  returns 0x00 (0000ms, 0210ms total)
T21BC 000:429 JLINK_ReadMem (0x40010C0C, 0x0004 Bytes, ...) -- CPU_ReadMem(4 bytes @ 0x40010C0C) - Data: 10 00 00 00  returns 0x00 (0000ms, 0210ms total)
T21BC 000:429 JLINK_ReadMem (0x40010C18, 0x0004 Bytes, ...) -- CPU_ReadMem(4 bytes @ 0x40010C18) - Data: 00 00 00 00  returns 0x00 (0001ms, 0211ms total)
T21BC 000:458 JLINK_ReadMem (0x40012C00, 0x0010 Bytes, ...) -- CPU_ReadMem(16 bytes @ 0x40012C00) - Data: 00 00 00 00 00 00 00 00 00 00 00 00 00 00 00 00  returns 0x00 (0000ms, 0211ms total)
T21BC 000:458 JLINK_ReadMem (0x40012C10, 0x0004 Bytes, ...) -- CPU_ReadMem(4 bytes @ 0x40012C10) - Data: 00 00 00 00  returns 0x00 (0000ms, 0211ms total)
T21BC 000:458 JLINK_ReadMem (0x40012C18, 0x0014 Bytes, ...) -- CPU_ReadMem(20 bytes @ 0x40012C18) - Data: 00 00 00 00 00 00 00 00 00 00 00 00 00 00 00 00 ...  returns 0x00 (0001ms, 0212ms total)
T21BC 000:459 JLINK_ReadMem (0x40012C2C, 0x0004 Bytes, ...) -- CPU_ReadMem(4 bytes @ 0x40012C2C) - Data: 00 00 00 00  returns 0x00 (0000ms, 0212ms total)
T21BC 000:459 JLINK_ReadMem (0x40012C30, 0x0004 Bytes, ...) -- CPU_ReadMem(4 bytes @ 0x40012C30) - Data: 00 00 00 00  returns 0x00 (0000ms, 0212ms total)
T21BC 000:459 JLINK_ReadMem (0x40012C34, 0x000C Bytes, ...) -- CPU_ReadMem(12 bytes @ 0x40012C34) - Data: 00 00 00 00 00 00 00 00 00 00 00 00  returns 0x00 (0001ms, 0213ms total)
T21BC 000:460 JLINK_ReadMem (0x40012C40, 0x0004 Bytes, ...) -- CPU_ReadMem(4 bytes @ 0x40012C40) - Data: 00 00 00 00  returns 0x00 (0000ms, 0213ms total)
T21BC 000:460 JLINK_ReadMem (0x40012C44, 0x0004 Bytes, ...) -- CPU_ReadMem(4 bytes @ 0x40012C44) - Data: 00 00 00 00  returns 0x00 (0000ms, 0213ms total)
T21BC 000:460 JLINK_ReadMem (0x40012C48, 0x0004 Bytes, ...) -- CPU_ReadMem(4 bytes @ 0x40012C48) - Data: 00 00 00 00  returns 0x00 (0000ms, 0213ms total)
T21BC 000:460 JLINK_ReadMem (0x40012C4C, 0x0004 Bytes, ...) -- CPU_ReadMem(4 bytes @ 0x40012C4C) - Data: 00 00 00 00  returns 0x00 (0000ms, 0213ms total)
T21BC 001:814 JLINK_ReadMem (0x20000008, 0x0001 Bytes, ...) -- CPU_ReadMem(64 bytes @ 0x20000000) -- Updating C cache (64 bytes @ 0x20000000) -- Read from C cache (1 bytes @ 0x20000008) - Data: 00  returns 0x00 (0000ms, 0213ms total)
T0FBC 001:873 JLINK_SetBPEx(Addr = 0x0800A638, Type = 0xFFFFFFF2)  returns 0x00000001 (0000ms, 0213ms total)
T0FBC 001:873 JLINK_SetBPEx(Addr = 0x080069E6, Type = 0xFFFFFFF2)  returns 0x00000002 (0000ms, 0213ms total)
T0FBC 001:873 JLINK_SetBPEx(Addr = 0x08004640, Type = 0xFFFFFFF2)  returns 0x00000003 (0000ms, 0213ms total)
T0FBC 001:873 JLINK_SetBPEx(Addr = 0x080045F8, Type = 0xFFFFFFF2)  returns 0x00000004 (0000ms, 0213ms total)
T0FBC 001:873 JLINK_SetBPEx(Addr = 0x080069C0, Type = 0xFFFFFFF2)  returns 0x00000005 (0000ms, 0213ms total)
T0FBC 001:873 JLINK_Go() -- CPU_WriteMem(4 bytes @ 0xE0002000) -- CPU_WriteMem(4 bytes @ 0xE0002000) -- CPU_WriteMem(4 bytes @ 0xE0002000) -- CPU_WriteMem(4 bytes @ 0xE0002000) -- CPU_WriteMem(4 bytes @ 0xE0002000) -- CPU_ReadMem(4 bytes @ 0xE0001000) -- CPU_WriteMem(4 bytes @ 0xE0002008) -- CPU_WriteMem(4 bytes @ 0xE000200C) -- CPU_WriteMem(4 bytes @ 0xE0002010) -- CPU_WriteMem(4 bytes @ 0xE0002014) -- CPU_WriteMem(4 bytes @ 0xE0002018) -- CPU_WriteMem(4 bytes @ 0xE000201C)
 -- CPU_WriteMem(4 bytes @ 0xE0001004) (0003ms, 0216ms total)
T0FBC 001:977 JLINK_IsHalted()  returns TRUE (0001ms, 0217ms total)
T0FBC 001:978 JLINK_Halt()  returns 0x00 (0000ms, 0216ms total)
T0FBC 001:978 JLINK_IsHalted()  returns TRUE (0000ms, 0216ms total)
T0FBC 001:978 JLINK_IsHalted()  returns TRUE (0000ms, 0216ms total)
T0FBC 001:978 JLINK_IsHalted()  returns TRUE (0000ms, 0216ms total)
T0FBC 001:978 JLINK_ReadReg(R15 (PC))  returns 0x0800A638 (0000ms, 0216ms total)
T0FBC 001:978 JLINK_ReadReg(XPSR)  returns 0x61000000 (0000ms, 0216ms total)
T0FBC 001:978 JLINK_ClrBPEx(BPHandle = 0x00000001)  returns 0x00 (0000ms, 0216ms total)
T0FBC 001:978 JLINK_ClrBPEx(BPHandle = 0x00000002)  returns 0x00 (0000ms, 0216ms total)
T0FBC 001:978 JLINK_ClrBPEx(BPHandle = 0x00000003)  returns 0x00 (0000ms, 0216ms total)
T0FBC 001:978 JLINK_ClrBPEx(BPHandle = 0x00000004)  returns 0x00 (0000ms, 0216ms total)
T0FBC 001:978 JLINK_ClrBPEx(BPHandle = 0x00000005)  returns 0x00 (0000ms, 0216ms total)
T0FBC 001:978 JLINK_ReadMemU32(0xE000ED30, 0x0001 Items, ...) -- CPU_ReadMem(4 bytes @ 0xE000ED30) - Data: 02 00 00 00  returns 0x01 (0000ms, 0216ms total)
T0FBC 001:978 JLINK_ReadMemU32(0xE0001028, 0x0001 Items, ...) -- CPU_ReadMem(4 bytes @ 0xE0001028) - Data: 00 00 00 00  returns 0x01 (0001ms, 0217ms total)
T0FBC 001:979 JLINK_ReadMemU32(0xE0001038, 0x0001 Items, ...) -- CPU_ReadMem(4 bytes @ 0xE0001038) - Data: 00 02 00 00  returns 0x01 (0000ms, 0217ms total)
T0FBC 001:979 JLINK_ReadMemU32(0xE0001048, 0x0001 Items, ...) -- CPU_ReadMem(4 bytes @ 0xE0001048) - Data: 00 00 00 00  returns 0x01 (0000ms, 0217ms total)
T0FBC 001:979 JLINK_ReadMemU32(0xE0001058, 0x0001 Items, ...) -- CPU_ReadMem(4 bytes @ 0xE0001058) - Data: 00 00 00 00  returns 0x01 (0001ms, 0218ms total)
T0FBC 001:980 JLINK_ReadReg(R0)  returns 0x0800A639 (0000ms, 0218ms total)
T0FBC 001:980 JLINK_ReadReg(R1)  returns 0x20004E40 (0000ms, 0218ms total)
T0FBC 001:980 JLINK_ReadReg(R2)  returns 0x00000000 (0000ms, 0218ms total)
T0FBC 001:980 JLINK_ReadReg(R3)  returns 0x08008261 (0000ms, 0218ms total)
T0FBC 001:980 JLINK_ReadReg(R4)  returns 0x08017DD4 (0000ms, 0218ms total)
T0FBC 001:980 JLINK_ReadReg(R5)  returns 0x08017DD4 (0000ms, 0218ms total)
T0FBC 001:980 JLINK_ReadReg(R6)  returns 0x20000008 (0000ms, 0218ms total)
T0FBC 001:980 JLINK_ReadReg(R7)  returns 0x20004E28 (0000ms, 0218ms total)
T0FBC 001:980 JLINK_ReadReg(R8)  returns 0x00000400 (0000ms, 0218ms total)
T0FBC 001:980 JLINK_ReadReg(R9)  returns 0x40010C00 (0000ms, 0218ms total)
T0FBC 001:980 JLINK_ReadReg(R10)  returns 0x40010800 (0000ms, 0218ms total)
T0FBC 001:980 JLINK_ReadReg(R11)  returns 0x00000000 (0000ms, 0218ms total)
T0FBC 001:980 JLINK_ReadReg(R12)  returns 0x00000064 (0000ms, 0218ms total)
T0FBC 001:980 JLINK_ReadReg(R13 (SP))  returns 0x20004E40 (0000ms, 0218ms total)
T0FBC 001:980 JLINK_ReadReg(R14)  returns 0x08000EB5 (0000ms, 0218ms total)
T0FBC 001:980 JLINK_ReadReg(R15 (PC))  returns 0x0800A638 (0000ms, 0218ms total)
T0FBC 001:980 JLINK_ReadReg(XPSR)  returns 0x61000000 (0000ms, 0218ms total)
T0FBC 001:980 JLINK_ReadReg(MSP)  returns 0x20004E40 (0000ms, 0218ms total)
T0FBC 001:980 JLINK_ReadReg(PSP)  returns 0x42059B14 (0000ms, 0218ms total)
T0FBC 001:980 JLINK_ReadReg(CFBP)  returns 0x00000000 (0000ms, 0218ms total)
T21BC 001:980 JLINK_ReadMem (0x00000000, 0x0001 Bytes, ...) -- CPU_ReadMem(4 bytes @ 0x00000004) -- CPU_ReadMem(64 bytes @ 0x08000000) -- Updating C cache (64 bytes @ 0x08000000) -- Read from C cache (1 bytes @ 0x08000000) - Data: 40  returns 0x00 (0001ms, 0219ms total)
T21BC 001:981 JLINK_ReadMem (0x00000000, 0x0004 Bytes, ...) -- Read from C cache (4 bytes @ 0x08000000) - Data: 40 4E 00 20  returns 0x00 (0000ms, 0219ms total)
T21BC 001:982 JLINK_ReadMemU32(0xE0001004, 0x0001 Items, ...) -- CPU_ReadMem(4 bytes @ 0xE0001004) - Data: 9C 7A 00 00  returns 0x01 (0000ms, 0219ms total)
T21BC 001:985 JLINK_ReadMem (0x20000008, 0x0001 Bytes, ...) -- CPU_ReadMem(64 bytes @ 0x20000000) -- Updating C cache (64 bytes @ 0x20000000) -- Read from C cache (1 bytes @ 0x20000008) - Data: 00  returns 0x00 (0000ms, 0219ms total)
T21BC 001:988 JLINK_ReadMem (0x40012C00, 0x0010 Bytes, ...) -- CPU_ReadMem(16 bytes @ 0x40012C00) - Data: 00 00 00 00 00 00 00 00 00 00 00 00 00 00 00 00  returns 0x00 (0000ms, 0219ms total)
T21BC 001:988 JLINK_ReadMem (0x40012C10, 0x0004 Bytes, ...) -- CPU_ReadMem(4 bytes @ 0x40012C10) - Data: 00 00 00 00  returns 0x00 (0001ms, 0220ms total)
T21BC 001:989 JLINK_ReadMem (0x40012C18, 0x0014 Bytes, ...) -- CPU_ReadMem(20 bytes @ 0x40012C18) - Data: 00 00 00 00 00 00 00 00 00 00 00 00 00 00 00 00 ...  returns 0x00 (0000ms, 0220ms total)
T21BC 001:989 JLINK_ReadMem (0x40012C2C, 0x0004 Bytes, ...) -- CPU_ReadMem(4 bytes @ 0x40012C2C) - Data: 00 00 00 00  returns 0x00 (0000ms, 0220ms total)
T21BC 001:989 JLINK_ReadMem (0x40012C30, 0x0004 Bytes, ...) -- CPU_ReadMem(4 bytes @ 0x40012C30) - Data: 00 00 00 00  returns 0x00 (0000ms, 0220ms total)
T21BC 001:989 JLINK_ReadMem (0x40012C34, 0x000C Bytes, ...) -- CPU_ReadMem(12 bytes @ 0x40012C34) - Data: 00 00 00 00 00 00 00 00 00 00 00 00  returns 0x00 (0001ms, 0221ms total)
T21BC 001:990 JLINK_ReadMem (0x40012C40, 0x0004 Bytes, ...) -- CPU_ReadMem(4 bytes @ 0x40012C40) - Data: 00 00 00 00  returns 0x00 (0000ms, 0221ms total)
T21BC 001:990 JLINK_ReadMem (0x40012C44, 0x0004 Bytes, ...) -- CPU_ReadMem(4 bytes @ 0x40012C44) - Data: 00 00 00 00  returns 0x00 (0000ms, 0221ms total)
T21BC 001:990 JLINK_ReadMem (0x40012C48, 0x0004 Bytes, ...) -- CPU_ReadMem(4 bytes @ 0x40012C48) - Data: 00 00 00 00  returns 0x00 (0000ms, 0221ms total)
T21BC 001:990 JLINK_ReadMem (0x40012C4C, 0x0004 Bytes, ...) -- CPU_ReadMem(4 bytes @ 0x40012C4C) - Data: 00 00 00 00  returns 0x00 (0001ms, 0222ms total)
T21BC 001:992 JLINK_ReadMem (0x40010800, 0x000C Bytes, ...) -- CPU_ReadMem(12 bytes @ 0x40010800) - Data: 44 44 44 44 44 44 84 88 00 00 00 00  returns 0x00 (0000ms, 0222ms total)
T21BC 001:992 JLINK_ReadMem (0x4001080C, 0x0004 Bytes, ...) -- CPU_ReadMem(4 bytes @ 0x4001080C) - Data: 00 A0 00 00  returns 0x00 (0000ms, 0222ms total)
T21BC 001:992 JLINK_ReadMem (0x40010818, 0x0004 Bytes, ...) -- CPU_ReadMem(4 bytes @ 0x40010818) - Data: 00 00 00 00  returns 0x00 (0000ms, 0222ms total)
T21BC 001:993 JLINK_ReadMem (0x40010C00, 0x000C Bytes, ...) -- CPU_ReadMem(12 bytes @ 0x40010C00) - Data: 44 44 48 44 44 44 44 44 00 00 00 00  returns 0x00 (0000ms, 0222ms total)
T21BC 001:993 JLINK_ReadMem (0x40010C0C, 0x0004 Bytes, ...) -- CPU_ReadMem(4 bytes @ 0x40010C0C) - Data: 10 00 00 00  returns 0x00 (0001ms, 0223ms total)
T21BC 001:994 JLINK_ReadMem (0x40010C18, 0x0004 Bytes, ...) -- CPU_ReadMem(4 bytes @ 0x40010C18) - Data: 00 00 00 00  returns 0x00 (0000ms, 0223ms total)
T21BC 001:997 JLINK_ReadMem (0x0800A630, 0x003C Bytes, ...) -- CPU_ReadMem(128 bytes @ 0x0800A600) -- Updating C cache (128 bytes @ 0x0800A600) -- Read from C cache (60 bytes @ 0x0800A630) - Data: D0 F8 0C 02 FF F7 E6 BC AD F5 16 7D F7 F7 8C FF ...  returns 0x00 (0000ms, 0223ms total)
T0FBC 002:299 JLINK_SetBPEx(Addr = 0x080069E6, Type = 0xFFFFFFF2)  returns 0x00000006 (0000ms, 0223ms total)
T0FBC 002:299 JLINK_SetBPEx(Addr = 0x08004640, Type = 0xFFFFFFF2)  returns 0x00000007 (0000ms, 0223ms total)
T0FBC 002:299 JLINK_SetBPEx(Addr = 0x080045F8, Type = 0xFFFFFFF2)  returns 0x00000008 (0000ms, 0223ms total)
T0FBC 002:299 JLINK_SetBPEx(Addr = 0x080069C0, Type = 0xFFFFFFF2)  returns 0x00000009 (0000ms, 0223ms total)
T0FBC 002:299 JLINK_Go() -- CPU_WriteMem(4 bytes @ 0xE0002000) -- CPU_WriteMem(4 bytes @ 0xE0002000) -- CPU_WriteMem(4 bytes @ 0xE0002000) -- CPU_WriteMem(4 bytes @ 0xE0002000) -- CPU_ReadMem(4 bytes @ 0xE0001000) -- CPU_WriteMem(4 bytes @ 0xE0002008) -- CPU_WriteMem(4 bytes @ 0xE000200C) -- CPU_WriteMem(4 bytes @ 0xE0002010) -- CPU_WriteMem(4 bytes @ 0xE0002014) -- CPU_WriteMem(4 bytes @ 0xE0002018) (0002ms, 0225ms total)
T0FBC 002:403 JLINK_IsHalted()  returns FALSE (0000ms, 0225ms total)
T0FBC 002:503 JLINK_IsHalted()  returns FALSE (0000ms, 0225ms total)
T0FBC 002:605 JLINK_IsHalted()  returns FALSE (0000ms, 0225ms total)
T0FBC 002:706 JLINK_IsHalted()  returns FALSE (0000ms, 0225ms total)
T0FBC 002:808 JLINK_IsHalted()  returns FALSE (0000ms, 0225ms total)
T0FBC 002:909 JLINK_IsHalted()  returns FALSE (0000ms, 0225ms total)
T0FBC 003:010 JLINK_IsHalted()  returns FALSE (0000ms, 0225ms total)
T0FBC 003:111 JLINK_IsHalted()  returns FALSE (0000ms, 0225ms total)
T0FBC 003:212 JLINK_IsHalted()  returns FALSE (0000ms, 0225ms total)
T0FBC 003:313 JLINK_IsHalted()  returns FALSE (0000ms, 0225ms total)
T0FBC 003:415 JLINK_IsHalted()  returns FALSE (0000ms, 0225ms total)
T0FBC 003:515 JLINK_IsHalted()  returns FALSE (0000ms, 0225ms total)
T0FBC 003:616 JLINK_IsHalted()  returns FALSE (0000ms, 0225ms total)
T0FBC 003:717 JLINK_IsHalted()  returns TRUE (0001ms, 0226ms total)
T0FBC 003:718 JLINK_Halt()  returns 0x00 (0000ms, 0225ms total)
T0FBC 003:718 JLINK_IsHalted()  returns TRUE (0000ms, 0225ms total)
T0FBC 003:718 JLINK_IsHalted()  returns TRUE (0000ms, 0225ms total)
T0FBC 003:718 JLINK_IsHalted()  returns TRUE (0000ms, 0225ms total)
T0FBC 003:718 JLINK_ReadReg(R15 (PC))  returns 0x080069C0 (0000ms, 0225ms total)
T0FBC 003:718 JLINK_ReadReg(XPSR)  returns 0x21000000 (0000ms, 0225ms total)
T0FBC 003:718 JLINK_ClrBPEx(BPHandle = 0x00000006)  returns 0x00 (0000ms, 0225ms total)
T0FBC 003:718 JLINK_ClrBPEx(BPHandle = 0x00000007)  returns 0x00 (0000ms, 0225ms total)
T0FBC 003:718 JLINK_ClrBPEx(BPHandle = 0x00000008)  returns 0x00 (0000ms, 0225ms total)
T0FBC 003:718 JLINK_ClrBPEx(BPHandle = 0x00000009)  returns 0x00 (0000ms, 0225ms total)
T0FBC 003:718 JLINK_ReadMemU32(0xE000ED30, 0x0001 Items, ...) -- CPU_ReadMem(4 bytes @ 0xE000ED30) - Data: 02 00 00 00  returns 0x01 (0000ms, 0225ms total)
T0FBC 003:718 JLINK_ReadMemU32(0xE0001028, 0x0001 Items, ...) -- CPU_ReadMem(4 bytes @ 0xE0001028) - Data: 00 00 00 00  returns 0x01 (0001ms, 0226ms total)
T0FBC 003:719 JLINK_ReadMemU32(0xE0001038, 0x0001 Items, ...) -- CPU_ReadMem(4 bytes @ 0xE0001038) - Data: 00 02 00 00  returns 0x01 (0000ms, 0226ms total)
T0FBC 003:719 JLINK_ReadMemU32(0xE0001048, 0x0001 Items, ...) -- CPU_ReadMem(4 bytes @ 0xE0001048) - Data: 00 00 00 00  returns 0x01 (0000ms, 0226ms total)
T0FBC 003:719 JLINK_ReadMemU32(0xE0001058, 0x0001 Items, ...) -- CPU_ReadMem(4 bytes @ 0xE0001058) - Data: 00 00 00 00  returns 0x01 (0001ms, 0227ms total)
T0FBC 003:720 JLINK_ReadReg(R0)  returns 0x00000001 (0000ms, 0227ms total)
T0FBC 003:720 JLINK_ReadReg(R1)  returns 0x00000032 (0000ms, 0227ms total)
T0FBC 003:720 JLINK_ReadReg(R2)  returns 0x2000006C (0000ms, 0227ms total)
T0FBC 003:720 JLINK_ReadReg(R3)  returns 0x200026EC (0000ms, 0227ms total)
T0FBC 003:720 JLINK_ReadReg(R4)  returns 0x20002908 (0000ms, 0227ms total)
T0FBC 003:720 JLINK_ReadReg(R5)  returns 0x00000011 (0000ms, 0227ms total)
T0FBC 003:720 JLINK_ReadReg(R6)  returns 0x200000B4 (0000ms, 0227ms total)
T0FBC 003:720 JLINK_ReadReg(R7)  returns 0x00000011 (0000ms, 0227ms total)
T0FBC 003:720 JLINK_ReadReg(R8)  returns 0xA5A5A5A5 (0000ms, 0227ms total)
T0FBC 003:720 JLINK_ReadReg(R9)  returns 0xA5A5A5A5 (0000ms, 0227ms total)
T0FBC 003:720 JLINK_ReadReg(R10)  returns 0xA5A5A5A5 (0000ms, 0227ms total)
T0FBC 003:720 JLINK_ReadReg(R11)  returns 0xA5A5A5A5 (0000ms, 0227ms total)
T0FBC 003:720 JLINK_ReadReg(R12)  returns 0xA5A5A5A5 (0000ms, 0227ms total)
T0FBC 003:720 JLINK_ReadReg(R13 (SP))  returns 0x200045A8 (0000ms, 0227ms total)
T0FBC 003:720 JLINK_ReadReg(R14)  returns 0x0800B0D3 (0000ms, 0227ms total)
T0FBC 003:720 JLINK_ReadReg(R15 (PC))  returns 0x080069C0 (0000ms, 0227ms total)
T0FBC 003:720 JLINK_ReadReg(XPSR)  returns 0x21000000 (0000ms, 0227ms total)
T0FBC 003:720 JLINK_ReadReg(MSP)  returns 0x20004E20 (0000ms, 0227ms total)
T0FBC 003:720 JLINK_ReadReg(PSP)  returns 0x200045A8 (0000ms, 0227ms total)
T0FBC 003:720 JLINK_ReadReg(CFBP)  returns 0x02000000 (0000ms, 0227ms total)
T21BC 003:720 JLINK_ReadMem (0x200045AC, 0x0004 Bytes, ...) -- CPU_ReadMem(64 bytes @ 0x20004580) -- Updating C cache (64 bytes @ 0x20004580) -- Read from C cache (4 bytes @ 0x200045AC) - Data: D3 B0 00 08  returns 0x00 (0000ms, 0227ms total)
T21BC 003:721 JLINK_ReadMem (0x200045A8, 0x0004 Bytes, ...) -- Read from C cache (4 bytes @ 0x200045A8) - Data: 08 29 00 20  returns 0x00 (0000ms, 0227ms total)
T21BC 003:721 JLINK_ReadMem (0x200045CC, 0x0004 Bytes, ...) -- CPU_ReadMem(64 bytes @ 0x200045C0) -- Updating C cache (64 bytes @ 0x200045C0) -- Read from C cache (4 bytes @ 0x200045CC) - Data: B9 B1 00 08  returns 0x00 (0000ms, 0227ms total)
T21BC 003:721 JLINK_ReadMem (0x200045B8, 0x0004 Bytes, ...) -- Read from C cache (4 bytes @ 0x200045B8) - Data: B4 00 00 20  returns 0x00 (0000ms, 0227ms total)
T21BC 003:721 JLINK_ReadMem (0x200045BC, 0x0004 Bytes, ...) -- Read from C cache (4 bytes @ 0x200045BC) - Data: A5 A5 A5 A5  returns 0x00 (0000ms, 0227ms total)
T21BC 003:721 JLINK_ReadMem (0x200045C0, 0x0004 Bytes, ...) -- Read from C cache (4 bytes @ 0x200045C0) - Data: A5 A5 A5 A5  returns 0x00 (0000ms, 0227ms total)
T21BC 003:721 JLINK_ReadMem (0x200045C4, 0x0004 Bytes, ...) -- Read from C cache (4 bytes @ 0x200045C4) - Data: A5 A5 A5 A5  returns 0x00 (0000ms, 0227ms total)
T21BC 003:721 JLINK_ReadMem (0x200045C8, 0x0004 Bytes, ...) -- Read from C cache (4 bytes @ 0x200045C8) - Data: A5 A5 A5 A5  returns 0x00 (0000ms, 0227ms total)
T21BC 003:722 JLINK_ReadMem (0x2000006C, 0x0004 Bytes, ...) -- CPU_ReadMem(64 bytes @ 0x20000040) -- Updating C cache (64 bytes @ 0x20000040) -- Read from C cache (4 bytes @ 0x2000006C) - Data: 01 00 00 00  returns 0x00 (0000ms, 0227ms total)
T21BC 003:723 JLINK_ReadMemU32(0xE0001004, 0x0001 Items, ...) -- CPU_ReadMem(4 bytes @ 0xE0001004) - Data: 1B 67 40 05  returns 0x01 (0000ms, 0227ms total)
T21BC 003:727 JLINK_ReadMem (0x20000008, 0x0001 Bytes, ...) -- CPU_ReadMem(64 bytes @ 0x20000000) -- Updating C cache (64 bytes @ 0x20000000) -- Read from C cache (1 bytes @ 0x20000008) - Data: 00  returns 0x00 (0001ms, 0228ms total)
T21BC 003:730 JLINK_ReadMem (0x2000004C, 0x0004 Bytes, ...) -- Read from C cache (4 bytes @ 0x2000004C) - Data: 00 00 00 00  returns 0x00 (0000ms, 0228ms total)
T21BC 003:734 JLINK_ReadMem (0x20000050, 0x0004 Bytes, ...) -- Read from C cache (4 bytes @ 0x20000050) - Data: 00 00 00 00  returns 0x00 (0000ms, 0228ms total)
T21BC 003:739 JLINK_ReadMem (0x20000054, 0x0004 Bytes, ...) -- Read from C cache (4 bytes @ 0x20000054) - Data: 00 00 00 00  returns 0x00 (0000ms, 0228ms total)
T21BC 003:744 JLINK_ReadMem (0x40012C00, 0x0010 Bytes, ...) -- CPU_ReadMem(16 bytes @ 0x40012C00) - Data: 01 00 00 00 00 00 00 00 00 00 00 00 00 00 00 00  returns 0x00 (0000ms, 0228ms total)
T21BC 003:744 JLINK_ReadMem (0x40012C10, 0x0004 Bytes, ...) -- CPU_ReadMem(4 bytes @ 0x40012C10) - Data: 1F 00 00 00  returns 0x00 (0000ms, 0228ms total)
T21BC 003:744 JLINK_ReadMem (0x40012C18, 0x0014 Bytes, ...) -- CPU_ReadMem(20 bytes @ 0x40012C18) - Data: 68 68 00 00 68 68 00 00 11 11 00 00 96 01 00 00 ...  returns 0x00 (0000ms, 0228ms total)
T21BC 003:744 JLINK_ReadMem (0x40012C2C, 0x0004 Bytes, ...) -- CPU_ReadMem(4 bytes @ 0x40012C2C) - Data: 00 04 00 00  returns 0x00 (0001ms, 0229ms total)
T21BC 003:745 JLINK_ReadMem (0x40012C30, 0x0004 Bytes, ...) -- CPU_ReadMem(4 bytes @ 0x40012C30) - Data: 00 00 00 00  returns 0x00 (0000ms, 0229ms total)
T21BC 003:745 JLINK_ReadMem (0x40012C34, 0x000C Bytes, ...) -- CPU_ReadMem(12 bytes @ 0x40012C34) - Data: 00 00 00 00 00 00 00 00 00 00 00 00  returns 0x00 (0000ms, 0229ms total)
T21BC 003:745 JLINK_ReadMem (0x40012C40, 0x0004 Bytes, ...) -- CPU_ReadMem(4 bytes @ 0x40012C40) - Data: 00 00 00 00  returns 0x00 (0000ms, 0229ms total)
T21BC 003:745 JLINK_ReadMem (0x40012C44, 0x0004 Bytes, ...) -- CPU_ReadMem(4 bytes @ 0x40012C44) - Data: 00 A0 00 00  returns 0x00 (0001ms, 0230ms total)
T21BC 003:746 JLINK_ReadMem (0x40012C48, 0x0004 Bytes, ...) -- CPU_ReadMem(4 bytes @ 0x40012C48) - Data: 00 00 00 00  returns 0x00 (0000ms, 0230ms total)
T21BC 003:746 JLINK_ReadMem (0x40012C4C, 0x0004 Bytes, ...) -- CPU_ReadMem(4 bytes @ 0x40012C4C) - Data: 01 00 00 00  returns 0x00 (0000ms, 0230ms total)
T21BC 003:792 JLINK_ReadMem (0x40010800, 0x000C Bytes, ...) -- CPU_ReadMem(12 bytes @ 0x40010800) - Data: 40 44 20 44 AA AA 84 28 EA 50 00 00  returns 0x00 (0000ms, 0230ms total)
T21BC 003:792 JLINK_ReadMem (0x4001080C, 0x0004 Bytes, ...) -- CPU_ReadMem(4 bytes @ 0x4001080C) - Data: 20 20 00 00  returns 0x00 (0001ms, 0231ms total)
T21BC 003:793 JLINK_ReadMem (0x40010818, 0x0004 Bytes, ...) -- CPU_ReadMem(4 bytes @ 0x40010818) - Data: 00 00 00 00  returns 0x00 (0000ms, 0231ms total)
T21BC 003:795 JLINK_ReadMem (0x40010C00, 0x000C Bytes, ...) -- CPU_ReadMem(12 bytes @ 0x40010C00) - Data: 44 42 48 44 44 88 B2 B4 DF DB 00 00  returns 0x00 (0000ms, 0231ms total)
T21BC 003:795 JLINK_ReadMem (0x40010C0C, 0x0004 Bytes, ...) -- CPU_ReadMem(4 bytes @ 0x40010C0C) - Data: 14 18 00 00  returns 0x00 (0000ms, 0231ms total)
T21BC 003:795 JLINK_ReadMem (0x40010C18, 0x0004 Bytes, ...) -- CPU_ReadMem(4 bytes @ 0x40010C18) - Data: 00 00 00 00  returns 0x00 (0000ms, 0231ms total)
T21BC 003:799 JLINK_ReadMem (0x080069BA, 0x0002 Bytes, ...) -- CPU_ReadMem(64 bytes @ 0x08006980) -- Updating C cache (64 bytes @ 0x08006980) -- Read from C cache (2 bytes @ 0x080069BA) - Data: 00 20  returns 0x00 (0000ms, 0231ms total)
T21BC 003:799 JLINK_ReadMem (0x080069BC, 0x003C Bytes, ...) -- CPU_ReadMem(64 bytes @ 0x080069C0) -- Updating C cache (64 bytes @ 0x080069C0) -- Read from C cache (60 bytes @ 0x080069BC) - Data: 3D 49 08 60 3D 48 80 69 78 B1 3D 48 00 78 02 28 ...  returns 0x00 (0001ms, 0232ms total)
T0FBC 006:427 JLINK_Step() -- Read from C cache (2 bytes @ 0x080069C0) -- CPU_ReadMem(4 bytes @ 0xE000ED18) -- CPU_WriteMem(4 bytes @ 0xE000ED18) -- CPU_ReadMem(4 bytes @ 0xE000ED18) -- CPU_WriteMem(4 bytes @ 0xE000ED18) -- CPU_ReadMem(64 bytes @ 0x08006A80) -- Updating C cache (64 bytes @ 0x08006A80) -- Read from C cache (4 bytes @ 0x08006AB8) -- Simulated  returns 0x00 (0001ms, 0233ms total)
T0FBC 006:428 JLINK_ReadReg(R15 (PC))  returns 0x080069C2 (0000ms, 0233ms total)
T0FBC 006:428 JLINK_ReadReg(XPSR)  returns 0x21000000 (0000ms, 0233ms total)
T0FBC 006:428 JLINK_SetBPEx(Addr = 0x080069E6, Type = 0xFFFFFFF2)  returns 0x0000000A (0000ms, 0233ms total)
T0FBC 006:428 JLINK_SetBPEx(Addr = 0x08004640, Type = 0xFFFFFFF2)  returns 0x0000000B (0000ms, 0233ms total)
T0FBC 006:428 JLINK_SetBPEx(Addr = 0x080045F8, Type = 0xFFFFFFF2)  returns 0x0000000C (0000ms, 0233ms total)
T0FBC 006:428 JLINK_SetBPEx(Addr = 0x080069C0, Type = 0xFFFFFFF2)  returns 0x0000000D (0000ms, 0233ms total)
T0FBC 006:428 JLINK_Go() -- CPU_WriteMem(4 bytes @ 0xE0002000) -- CPU_WriteMem(4 bytes @ 0xE0002000) -- CPU_WriteMem(4 bytes @ 0xE0002000) -- CPU_WriteMem(4 bytes @ 0xE0002000) -- CPU_ReadMem(4 bytes @ 0xE0001000) -- CPU_WriteMem(4 bytes @ 0xE0001004) (0002ms, 0235ms total)
T0FBC 006:532 JLINK_IsHalted()  returns TRUE (0001ms, 0236ms total)
T0FBC 006:533 JLINK_Halt()  returns 0x00 (0000ms, 0235ms total)
T0FBC 006:533 JLINK_IsHalted()  returns TRUE (0000ms, 0235ms total)
T0FBC 006:533 JLINK_IsHalted()  returns TRUE (0000ms, 0235ms total)
T0FBC 006:533 JLINK_IsHalted()  returns TRUE (0000ms, 0235ms total)
T0FBC 006:534 JLINK_ReadReg(R15 (PC))  returns 0x080069E6 (0000ms, 0235ms total)
T0FBC 006:534 JLINK_ReadReg(XPSR)  returns 0x81000000 (0000ms, 0235ms total)
T0FBC 006:534 JLINK_ClrBPEx(BPHandle = 0x0000000A)  returns 0x00 (0000ms, 0235ms total)
T0FBC 006:534 JLINK_ClrBPEx(BPHandle = 0x0000000B)  returns 0x00 (0000ms, 0235ms total)
T0FBC 006:534 JLINK_ClrBPEx(BPHandle = 0x0000000C)  returns 0x00 (0000ms, 0235ms total)
T0FBC 006:534 JLINK_ClrBPEx(BPHandle = 0x0000000D)  returns 0x00 (0000ms, 0235ms total)
T0FBC 006:534 JLINK_ReadMemU32(0xE000ED30, 0x0001 Items, ...) -- CPU_ReadMem(4 bytes @ 0xE000ED30) - Data: 02 00 00 00  returns 0x01 (0000ms, 0235ms total)
T0FBC 006:534 JLINK_ReadMemU32(0xE0001028, 0x0001 Items, ...) -- CPU_ReadMem(4 bytes @ 0xE0001028) - Data: 00 00 00 00  returns 0x01 (0001ms, 0236ms total)
T0FBC 006:535 JLINK_ReadMemU32(0xE0001038, 0x0001 Items, ...) -- CPU_ReadMem(4 bytes @ 0xE0001038) - Data: 00 02 00 00  returns 0x01 (0000ms, 0236ms total)
T0FBC 006:535 JLINK_ReadMemU32(0xE0001048, 0x0001 Items, ...) -- CPU_ReadMem(4 bytes @ 0xE0001048) - Data: 00 00 00 00  returns 0x01 (0000ms, 0236ms total)
T0FBC 006:535 JLINK_ReadMemU32(0xE0001058, 0x0001 Items, ...) -- CPU_ReadMem(4 bytes @ 0xE0001058) - Data: 00 00 00 00  returns 0x01 (0001ms, 0237ms total)
T0FBC 006:536 JLINK_ReadReg(R0)  returns 0x00000001 (0000ms, 0237ms total)
T0FBC 006:536 JLINK_ReadReg(R1)  returns 0x00000032 (0000ms, 0237ms total)
T0FBC 006:536 JLINK_ReadReg(R2)  returns 0x2000006C (0000ms, 0237ms total)
T0FBC 006:536 JLINK_ReadReg(R3)  returns 0x200026EC (0000ms, 0237ms total)
T0FBC 006:536 JLINK_ReadReg(R4)  returns 0x20002908 (0000ms, 0237ms total)
T0FBC 006:536 JLINK_ReadReg(R5)  returns 0x00000011 (0000ms, 0237ms total)
T0FBC 006:536 JLINK_ReadReg(R6)  returns 0x200000B4 (0000ms, 0237ms total)
T0FBC 006:536 JLINK_ReadReg(R7)  returns 0x00000011 (0000ms, 0237ms total)
T0FBC 006:536 JLINK_ReadReg(R8)  returns 0xA5A5A5A5 (0000ms, 0237ms total)
T0FBC 006:536 JLINK_ReadReg(R9)  returns 0xA5A5A5A5 (0000ms, 0237ms total)
T0FBC 006:536 JLINK_ReadReg(R10)  returns 0xA5A5A5A5 (0000ms, 0237ms total)
T0FBC 006:536 JLINK_ReadReg(R11)  returns 0xA5A5A5A5 (0000ms, 0237ms total)
T0FBC 006:536 JLINK_ReadReg(R12)  returns 0xA5A5A5A5 (0001ms, 0238ms total)
T0FBC 006:537 JLINK_ReadReg(R13 (SP))  returns 0x200045A8 (0000ms, 0238ms total)
T0FBC 006:537 JLINK_ReadReg(R14)  returns 0x0800B0D3 (0000ms, 0238ms total)
T0FBC 006:537 JLINK_ReadReg(R15 (PC))  returns 0x080069E6 (0000ms, 0238ms total)
T0FBC 006:537 JLINK_ReadReg(XPSR)  returns 0x81000000 (0000ms, 0238ms total)
T0FBC 006:537 JLINK_ReadReg(MSP)  returns 0x20004E20 (0000ms, 0238ms total)
T0FBC 006:537 JLINK_ReadReg(PSP)  returns 0x200045A8 (0000ms, 0238ms total)
T0FBC 006:537 JLINK_ReadReg(CFBP)  returns 0x02000000 (0000ms, 0238ms total)
T21BC 006:538 JLINK_ReadMem (0x200045AC, 0x0004 Bytes, ...) -- CPU_ReadMem(64 bytes @ 0x20004580) -- Updating C cache (64 bytes @ 0x20004580) -- Read from C cache (4 bytes @ 0x200045AC) - Data: D3 B0 00 08  returns 0x00 (0000ms, 0238ms total)
T21BC 006:538 JLINK_ReadMem (0x200045A8, 0x0004 Bytes, ...) -- Read from C cache (4 bytes @ 0x200045A8) - Data: 08 29 00 20  returns 0x00 (0000ms, 0238ms total)
T21BC 006:538 JLINK_ReadMem (0x200045CC, 0x0004 Bytes, ...) -- CPU_ReadMem(64 bytes @ 0x200045C0) -- Updating C cache (64 bytes @ 0x200045C0) -- Read from C cache (4 bytes @ 0x200045CC) - Data: B9 B1 00 08  returns 0x00 (0001ms, 0239ms total)
T21BC 006:539 JLINK_ReadMem (0x200045B8, 0x0004 Bytes, ...) -- Read from C cache (4 bytes @ 0x200045B8) - Data: B4 00 00 20  returns 0x00 (0000ms, 0239ms total)
T21BC 006:539 JLINK_ReadMem (0x200045BC, 0x0004 Bytes, ...) -- Read from C cache (4 bytes @ 0x200045BC) - Data: A5 A5 A5 A5  returns 0x00 (0000ms, 0239ms total)
T21BC 006:539 JLINK_ReadMem (0x200045C0, 0x0004 Bytes, ...) -- Read from C cache (4 bytes @ 0x200045C0) - Data: A5 A5 A5 A5  returns 0x00 (0000ms, 0239ms total)
T21BC 006:539 JLINK_ReadMem (0x200045C4, 0x0004 Bytes, ...) -- Read from C cache (4 bytes @ 0x200045C4) - Data: A5 A5 A5 A5  returns 0x00 (0000ms, 0239ms total)
T21BC 006:539 JLINK_ReadMem (0x200045C8, 0x0004 Bytes, ...) -- Read from C cache (4 bytes @ 0x200045C8) - Data: A5 A5 A5 A5  returns 0x00 (0000ms, 0239ms total)
T21BC 006:539 JLINK_ReadMem (0x2000006C, 0x0004 Bytes, ...) -- CPU_ReadMem(64 bytes @ 0x20000040) -- Updating C cache (64 bytes @ 0x20000040) -- Read from C cache (4 bytes @ 0x2000006C) - Data: 01 00 00 00  returns 0x00 (0001ms, 0240ms total)
T21BC 006:540 JLINK_ReadMemU32(0xE0001004, 0x0001 Items, ...) -- CPU_ReadMem(4 bytes @ 0xE0001004) - Data: 98 FD 40 05  returns 0x01 (0000ms, 0240ms total)
T21BC 006:552 JLINK_ReadMem (0x20000008, 0x0001 Bytes, ...) -- CPU_ReadMem(64 bytes @ 0x20000000) -- Updating C cache (64 bytes @ 0x20000000) -- Read from C cache (1 bytes @ 0x20000008) - Data: 00  returns 0x00 (0001ms, 0241ms total)
T21BC 006:556 JLINK_ReadMem (0x2000004C, 0x0004 Bytes, ...) -- Read from C cache (4 bytes @ 0x2000004C) - Data: 00 00 00 00  returns 0x00 (0000ms, 0241ms total)
T21BC 006:556 JLINK_ReadMem (0x20000050, 0x0004 Bytes, ...) -- Read from C cache (4 bytes @ 0x20000050) - Data: 00 00 00 00  returns 0x00 (0000ms, 0241ms total)
T21BC 006:556 JLINK_ReadMem (0x20000054, 0x0004 Bytes, ...) -- Read from C cache (4 bytes @ 0x20000054) - Data: 00 00 00 00  returns 0x00 (0000ms, 0241ms total)
T21BC 006:556 JLINK_ReadMem (0x40012C00, 0x0010 Bytes, ...) -- CPU_ReadMem(16 bytes @ 0x40012C00) - Data: 01 00 00 00 00 00 00 00 00 00 00 00 00 00 00 00  returns 0x00 (0001ms, 0242ms total)
T21BC 006:557 JLINK_ReadMem (0x40012C10, 0x0004 Bytes, ...) -- CPU_ReadMem(4 bytes @ 0x40012C10) - Data: 1F 00 00 00  returns 0x00 (0000ms, 0242ms total)
T21BC 006:557 JLINK_ReadMem (0x40012C18, 0x0014 Bytes, ...) -- CPU_ReadMem(20 bytes @ 0x40012C18) - Data: 68 68 00 00 68 68 00 00 11 11 00 00 88 00 00 00 ...  returns 0x00 (0000ms, 0242ms total)
T21BC 006:557 JLINK_ReadMem (0x40012C2C, 0x0004 Bytes, ...) -- CPU_ReadMem(4 bytes @ 0x40012C2C) - Data: 00 04 00 00  returns 0x00 (0001ms, 0243ms total)
T21BC 006:558 JLINK_ReadMem (0x40012C30, 0x0004 Bytes, ...) -- CPU_ReadMem(4 bytes @ 0x40012C30) - Data: 00 00 00 00  returns 0x00 (0000ms, 0243ms total)
T21BC 006:558 JLINK_ReadMem (0x40012C34, 0x000C Bytes, ...) -- CPU_ReadMem(12 bytes @ 0x40012C34) - Data: 00 00 00 00 00 00 00 00 00 00 00 00  returns 0x00 (0000ms, 0243ms total)
T21BC 006:558 JLINK_ReadMem (0x40012C40, 0x0004 Bytes, ...) -- CPU_ReadMem(4 bytes @ 0x40012C40) - Data: 00 00 00 00  returns 0x00 (0001ms, 0244ms total)
T21BC 006:559 JLINK_ReadMem (0x40012C44, 0x0004 Bytes, ...) -- CPU_ReadMem(4 bytes @ 0x40012C44) - Data: 00 A0 00 00  returns 0x00 (0000ms, 0244ms total)
T21BC 006:559 JLINK_ReadMem (0x40012C48, 0x0004 Bytes, ...) -- CPU_ReadMem(4 bytes @ 0x40012C48) - Data: 00 00 00 00  returns 0x00 (0001ms, 0245ms total)
T21BC 006:560 JLINK_ReadMem (0x40012C4C, 0x0004 Bytes, ...) -- CPU_ReadMem(4 bytes @ 0x40012C4C) - Data: 01 00 00 00  returns 0x00 (0000ms, 0245ms total)
T21BC 006:570 JLINK_ReadMem (0x40010800, 0x000C Bytes, ...) -- CPU_ReadMem(12 bytes @ 0x40010800) - Data: 40 44 20 44 AA AA 84 28 EA 50 00 00  returns 0x00 (0000ms, 0245ms total)
T21BC 006:570 JLINK_ReadMem (0x4001080C, 0x0004 Bytes, ...) -- CPU_ReadMem(4 bytes @ 0x4001080C) - Data: 20 20 00 00  returns 0x00 (0001ms, 0246ms total)
T21BC 006:571 JLINK_ReadMem (0x40010818, 0x0004 Bytes, ...) -- CPU_ReadMem(4 bytes @ 0x40010818) - Data: 00 00 00 00  returns 0x00 (0000ms, 0246ms total)
T21BC 006:572 JLINK_ReadMem (0x40010C00, 0x000C Bytes, ...) -- CPU_ReadMem(12 bytes @ 0x40010C00) - Data: 44 42 48 44 44 88 B2 B4 DF DB 00 00  returns 0x00 (0001ms, 0247ms total)
T21BC 006:573 JLINK_ReadMem (0x40010C0C, 0x0004 Bytes, ...) -- CPU_ReadMem(4 bytes @ 0x40010C0C) - Data: 14 18 00 00  returns 0x00 (0000ms, 0247ms total)
T21BC 006:573 JLINK_ReadMem (0x40010C18, 0x0004 Bytes, ...) -- CPU_ReadMem(4 bytes @ 0x40010C18) - Data: 00 00 00 00  returns 0x00 (0000ms, 0247ms total)
T21BC 006:578 JLINK_ReadMem (0x080069C0, 0x003C Bytes, ...) -- CPU_ReadMem(64 bytes @ 0x080069C0) -- Updating C cache (64 bytes @ 0x080069C0) -- Read from C cache (60 bytes @ 0x080069C0) - Data: 3D 48 80 69 78 B1 3D 48 00 78 02 28 0B D1 3C 48 ...  returns 0x00 (0001ms, 0248ms total)
T0FBC 007:192 JLINK_Step() -- Read from C cache (2 bytes @ 0x080069E6) -- CPU_ReadMem(64 bytes @ 0x08006A80) -- Updating C cache (64 bytes @ 0x08006A80) -- Read from C cache (4 bytes @ 0x08006AB8) -- Simulated  returns 0x00 (0000ms, 0248ms total)
T0FBC 007:192 JLINK_ReadReg(R15 (PC))  returns 0x080069E8 (0000ms, 0248ms total)
T0FBC 007:192 JLINK_ReadReg(XPSR)  returns 0x81000000 (0001ms, 0249ms total)
T0FBC 007:193 JLINK_SetBPEx(Addr = 0x080069E6, Type = 0xFFFFFFF2)  returns 0x0000000E (0000ms, 0249ms total)
T0FBC 007:193 JLINK_SetBPEx(Addr = 0x08004640, Type = 0xFFFFFFF2)  returns 0x0000000F (0000ms, 0249ms total)
T0FBC 007:193 JLINK_SetBPEx(Addr = 0x080045F8, Type = 0xFFFFFFF2)  returns 0x00000010 (0000ms, 0249ms total)
T0FBC 007:193 JLINK_SetBPEx(Addr = 0x080069C0, Type = 0xFFFFFFF2)  returns 0x00000011 (0000ms, 0249ms total)
T0FBC 007:193 JLINK_Go() -- CPU_WriteMem(4 bytes @ 0xE0002000) -- CPU_WriteMem(4 bytes @ 0xE0002000) -- CPU_WriteMem(4 bytes @ 0xE0002000) -- CPU_WriteMem(4 bytes @ 0xE0002000) -- CPU_ReadMem(4 bytes @ 0xE0001000) -- CPU_WriteMem(4 bytes @ 0xE0001004) (0001ms, 0250ms total)
T0FBC 007:296 JLINK_IsHalted()  returns TRUE (0001ms, 0251ms total)
T0FBC 007:297 JLINK_Halt()  returns 0x00 (0000ms, 0250ms total)
T0FBC 007:297 JLINK_IsHalted()  returns TRUE (0000ms, 0250ms total)
T0FBC 007:297 JLINK_IsHalted()  returns TRUE (0000ms, 0250ms total)
T0FBC 007:297 JLINK_IsHalted()  returns TRUE (0000ms, 0250ms total)
T0FBC 007:298 JLINK_ReadReg(R15 (PC))  returns 0x080069C0 (0000ms, 0250ms total)
T0FBC 007:298 JLINK_ReadReg(XPSR)  returns 0x21000000 (0000ms, 0250ms total)
T0FBC 007:298 JLINK_ClrBPEx(BPHandle = 0x0000000E)  returns 0x00 (0000ms, 0250ms total)
T0FBC 007:298 JLINK_ClrBPEx(BPHandle = 0x0000000F)  returns 0x00 (0000ms, 0250ms total)
T0FBC 007:298 JLINK_ClrBPEx(BPHandle = 0x00000010)  returns 0x00 (0000ms, 0250ms total)
T0FBC 007:298 JLINK_ClrBPEx(BPHandle = 0x00000011)  returns 0x00 (0000ms, 0250ms total)
T0FBC 007:298 JLINK_ReadMemU32(0xE000ED30, 0x0001 Items, ...) -- CPU_ReadMem(4 bytes @ 0xE000ED30) - Data: 02 00 00 00  returns 0x01 (0000ms, 0250ms total)
T0FBC 007:298 JLINK_ReadMemU32(0xE0001028, 0x0001 Items, ...) -- CPU_ReadMem(4 bytes @ 0xE0001028) - Data: 00 00 00 00  returns 0x01 (0001ms, 0251ms total)
T0FBC 007:299 JLINK_ReadMemU32(0xE0001038, 0x0001 Items, ...) -- CPU_ReadMem(4 bytes @ 0xE0001038) - Data: 00 02 00 00  returns 0x01 (0000ms, 0251ms total)
T0FBC 007:299 JLINK_ReadMemU32(0xE0001048, 0x0001 Items, ...) -- CPU_ReadMem(4 bytes @ 0xE0001048) - Data: 00 00 00 00  returns 0x01 (0000ms, 0251ms total)
T0FBC 007:299 JLINK_ReadMemU32(0xE0001058, 0x0001 Items, ...) -- CPU_ReadMem(4 bytes @ 0xE0001058) - Data: 00 00 00 00  returns 0x01 (0001ms, 0252ms total)
T0FBC 007:300 JLINK_ReadReg(R0)  returns 0x00000002 (0000ms, 0252ms total)
T0FBC 007:300 JLINK_ReadReg(R1)  returns 0x00000032 (0000ms, 0252ms total)
T0FBC 007:300 JLINK_ReadReg(R2)  returns 0x2000006C (0000ms, 0252ms total)
T0FBC 007:300 JLINK_ReadReg(R3)  returns 0x200026EC (0000ms, 0252ms total)
T0FBC 007:300 JLINK_ReadReg(R4)  returns 0x20002908 (0000ms, 0252ms total)
T0FBC 007:300 JLINK_ReadReg(R5)  returns 0x0000001B (0000ms, 0252ms total)
T0FBC 007:300 JLINK_ReadReg(R6)  returns 0x200000B4 (0000ms, 0252ms total)
T0FBC 007:300 JLINK_ReadReg(R7)  returns 0x0000001B (0000ms, 0252ms total)
T0FBC 007:300 JLINK_ReadReg(R8)  returns 0xA5A5A5A5 (0000ms, 0252ms total)
T0FBC 007:300 JLINK_ReadReg(R9)  returns 0xA5A5A5A5 (0000ms, 0252ms total)
T0FBC 007:300 JLINK_ReadReg(R10)  returns 0xA5A5A5A5 (0001ms, 0253ms total)
T0FBC 007:301 JLINK_ReadReg(R11)  returns 0xA5A5A5A5 (0000ms, 0253ms total)
T0FBC 007:301 JLINK_ReadReg(R12)  returns 0xA5A5A5A5 (0000ms, 0253ms total)
T0FBC 007:301 JLINK_ReadReg(R13 (SP))  returns 0x200045A8 (0000ms, 0253ms total)
T0FBC 007:301 JLINK_ReadReg(R14)  returns 0x0800B0D3 (0000ms, 0253ms total)
T0FBC 007:301 JLINK_ReadReg(R15 (PC))  returns 0x080069C0 (0000ms, 0253ms total)
T0FBC 007:301 JLINK_ReadReg(XPSR)  returns 0x21000000 (0000ms, 0253ms total)
T0FBC 007:301 JLINK_ReadReg(MSP)  returns 0x20004E20 (0000ms, 0253ms total)
T0FBC 007:301 JLINK_ReadReg(PSP)  returns 0x200045A8 (0000ms, 0253ms total)
T0FBC 007:301 JLINK_ReadReg(CFBP)  returns 0x02000000 (0000ms, 0253ms total)
T21BC 007:306 JLINK_ReadMem (0x200045AC, 0x0004 Bytes, ...) -- CPU_ReadMem(64 bytes @ 0x20004580) -- Updating C cache (64 bytes @ 0x20004580) -- Read from C cache (4 bytes @ 0x200045AC) - Data: D3 B0 00 08  returns 0x00 (0000ms, 0253ms total)
T21BC 007:306 JLINK_ReadMem (0x200045A8, 0x0004 Bytes, ...) -- Read from C cache (4 bytes @ 0x200045A8) - Data: 08 29 00 20  returns 0x00 (0001ms, 0254ms total)
T21BC 007:307 JLINK_ReadMem (0x200045CC, 0x0004 Bytes, ...) -- CPU_ReadMem(64 bytes @ 0x200045C0) -- Updating C cache (64 bytes @ 0x200045C0) -- Read from C cache (4 bytes @ 0x200045CC) - Data: B9 B1 00 08  returns 0x00 (0000ms, 0254ms total)
T21BC 007:307 JLINK_ReadMem (0x200045B8, 0x0004 Bytes, ...) -- Read from C cache (4 bytes @ 0x200045B8) - Data: B4 00 00 20  returns 0x00 (0000ms, 0254ms total)
T21BC 007:307 JLINK_ReadMem (0x200045BC, 0x0004 Bytes, ...) -- Read from C cache (4 bytes @ 0x200045BC) - Data: A5 A5 A5 A5  returns 0x00 (0000ms, 0254ms total)
T21BC 007:307 JLINK_ReadMem (0x200045C0, 0x0004 Bytes, ...) -- Read from C cache (4 bytes @ 0x200045C0) - Data: A5 A5 A5 A5  returns 0x00 (0000ms, 0254ms total)
T21BC 007:307 JLINK_ReadMem (0x200045C4, 0x0004 Bytes, ...) -- Read from C cache (4 bytes @ 0x200045C4) - Data: A5 A5 A5 A5  returns 0x00 (0000ms, 0254ms total)
T21BC 007:307 JLINK_ReadMem (0x200045C8, 0x0004 Bytes, ...) -- Read from C cache (4 bytes @ 0x200045C8) - Data: A5 A5 A5 A5  returns 0x00 (0001ms, 0255ms total)
